Sample in Buffer,Sample in Window,TRIGGER,block_design_i/system_ila_1/inst/probe0_1,block_design_i/system_ila_1/inst/probe1_1,block_design_i/system_ila_1/inst/probe2_1[13:0]
Radix - UNSIGNED,UNSIGNED,UNSIGNED,HEX,HEX,UNSIGNED
0,0,0,1,0,4697
1,1,0,1,0,2737
2,2,0,0,0,9686
3,3,0,1,0,13959
4,4,0,0,0,9144
5,5,0,1,0,2425
6,6,0,0,0,5338
7,7,0,0,0,12694
8,8,0,0,0,12808
9,9,0,1,0,5377
10,10,0,0,0,2447
11,11,0,0,0,8948
12,12,0,0,0,13970
13,13,0,0,0,9864
14,14,0,1,0,2705
15,15,0,0,0,4693
16,16,0,0,0,12209
17,17,0,0,0,13207
18,18,0,0,0,6076
19,19,0,1,0,2255
20,20,0,0,0,8221
21,21,0,0,0,13863
22,22,0,0,0,10585
23,23,0,0,0,3088
24,24,0,1,0,4113
25,25,0,0,0,11676
26,26,0,0,0,13520
27,27,0,0,0,6832
28,28,0,0,0,2152
29,29,0,1,0,7465
30,30,0,0,0,13693
31,31,0,0,0,11229
32,32,0,0,0,3542
33,33,0,1,0,3573
34,34,0,0,0,11049
35,35,0,0,0,13734
36,36,0,1,0,7611
37,37,0,0,0,2140
38,38,0,1,0,6721
39,39,0,0,0,13421
40,40,0,0,0,11837
41,41,0,0,0,4071
42,42,0,0,0,3116
43,43,0,1,0,10379
44,44,0,0,0,13903
45,45,0,1,0,8367
46,46,0,0,0,2236
47,47,0,1,0,6014
48,48,0,0,0,13086
49,49,0,0,0,12350
50,50,0,0,0,4684
51,51,0,1,0,2751
52,52,0,1,0,9697
53,53,0,0,0,13966
54,54,0,0,0,9142
55,55,0,0,0,2422
56,56,0,1,0,5355
57,57,0,1,0,12695
58,58,0,1,0,12825
59,59,0,1,0,5371
60,60,0,1,0,2467
61,61,0,0,0,8960
62,62,0,0,0,13964
63,63,0,1,0,9867
64,64,0,0,0,2696
65,65,0,1,0,4691
66,66,0,0,0,12202
67,67,0,1,0,13191
68,68,0,0,0,6075
69,69,0,0,0,2240
70,70,0,1,0,8233
71,71,0,0,0,13859
72,72,0,0,0,10569
73,73,0,0,0,3078
74,74,0,1,0,4103
75,75,0,0,0,11655
76,76,0,0,0,13530
77,77,0,1,0,6845
78,78,0,1,0,2163
79,79,0,0,0,7478
80,80,0,1,0,13697
81,81,0,0,0,11234
82,82,0,0,0,3544
83,83,0,1,0,3577
84,84,0,0,0,11040
85,85,0,1,0,13741
86,86,0,0,0,7581
87,87,0,0,0,2146
88,88,0,1,0,6737
89,89,0,0,0,13422
90,90,0,1,0,11805
91,91,0,0,0,4071
92,92,0,0,0,3148
93,93,0,1,0,10401
94,94,0,0,0,13886
95,95,0,1,0,8359
96,96,0,0,0,2243
97,97,0,0,0,6028
98,98,0,1,0,13087
99,99,0,0,0,12343
100,100,0,0,0,4683
101,101,0,0,0,2768
102,102,0,1,0,9693
103,103,0,0,0,13961
104,104,0,0,0,9131
105,105,0,0,0,2438
106,106,0,1,0,5353
107,107,0,0,0,12698
108,108,0,0,0,12820
109,109,0,0,0,5344
110,110,0,0,0,2468
111,111,0,1,0,8973
112,112,0,0,0,13945
113,113,0,0,0,9850
114,114,0,1,0,2697
115,115,0,0,0,4708
116,116,0,0,0,12234
117,117,0,1,0,13211
118,118,0,0,0,6069
119,119,0,0,0,2264
120,120,0,0,0,8258
121,121,0,1,0,13873
122,122,0,0,0,10565
123,123,0,0,0,3054
124,124,0,0,0,4124
125,125,0,0,0,11672
126,126,0,0,0,13516
127,127,0,0,0,6812
128,128,0,1,0,2135
129,129,0,0,0,7500
130,130,0,1,0,13705
131,131,0,0,0,11201
132,132,0,0,0,3528
133,133,0,0,0,3596
134,134,0,0,0,11082
135,135,0,0,0,13736
136,136,0,1,0,7571
137,137,0,0,0,2158
138,138,0,0,0,6758
139,139,0,0,0,13442
140,140,0,0,0,11790
141,141,0,0,0,4064
142,142,0,1,0,3151
143,143,0,0,0,10404
144,144,0,1,0,13895
145,145,0,1,0,8347
146,146,0,0,0,2242
147,147,0,0,0,6060
148,148,0,1,0,13102
149,149,0,1,0,12343
150,150,0,1,0,4669
151,151,0,0,0,2768
152,152,0,1,0,9721
153,153,0,1,0,13965
154,154,0,0,0,9114
155,155,0,1,0,2422
156,156,0,1,0,5368
157,157,0,1,0,12724
158,158,0,0,0,12800
159,159,0,1,0,5329
160,160,0,0,0,2476
161,161,0,1,0,8993
162,162,0,0,0,13974
163,163,0,1,0,9853
164,164,0,1,0,2677
165,165,0,1,0,4731
166,166,0,0,0,12232
167,167,0,1,0,13199
168,168,0,0,0,6044
169,169,0,1,0,2250
170,170,0,1,0,8261
171,171,0,1,0,13858
172,172,0,1,0,10526
173,173,0,1,0,3056
174,174,0,1,0,4141
175,175,0,0,0,11672
176,176,0,1,0,13511
177,177,0,0,0,6788
178,178,0,1,0,2145
179,179,0,1,0,7511
180,180,0,1,0,13701
181,181,0,0,0,11192
182,182,0,1,0,3517
183,183,0,1,0,3599
184,184,0,1,0,11073
185,185,0,0,0,13725
186,186,0,1,0,7561
187,187,0,0,0,2142
188,188,0,1,0,6776
189,189,0,1,0,13455
190,190,0,1,0,11793
191,191,0,0,0,4056
192,192,0,1,0,3143
193,193,0,1,0,10421
194,194,0,0,0,13912
195,195,0,1,0,8323
196,196,0,1,0,2223
197,197,0,1,0,6063
198,198,0,0,0,13106
199,199,0,1,0,12327
200,200,0,0,0,4670
201,201,0,1,0,2779
202,202,0,0,0,9734
203,203,0,1,0,13969
204,204,0,1,0,9099
205,205,0,1,0,2417
206,206,0,1,0,5378
207,207,0,1,0,12731
208,208,0,1,0,12795
209,209,0,1,0,5331
210,210,0,0,0,2482
211,211,0,1,0,9008
212,212,0,1,0,13962
213,213,0,1,0,9831
214,214,0,0,0,2688
215,215,0,1,0,4726
216,216,0,1,0,12227
217,217,0,1,0,13169
218,218,0,1,0,6027
219,219,0,1,0,2271
220,220,0,0,0,8264
221,221,0,1,0,13867
222,222,0,1,0,10536
223,223,0,1,0,3046
224,224,0,1,0,4129
225,225,0,0,0,11680
226,226,0,1,0,13504
227,227,0,1,0,6786
228,228,0,1,0,2165
229,229,0,1,0,7516
230,230,0,1,0,13687
231,231,0,0,0,11184
232,232,0,1,0,3509
233,233,0,1,0,3605
234,234,0,1,0,11090
235,235,0,1,0,13730
236,236,0,1,0,7562
237,237,0,1,0,2150
238,238,0,1,0,6777
239,239,0,1,0,13453
240,240,0,1,0,11787
241,241,0,1,0,4058
242,242,0,1,0,3151
243,243,0,1,0,10427
244,244,0,1,0,13893
245,245,0,1,0,8338
246,246,0,1,0,2224
247,247,0,1,0,6071
248,248,0,1,0,13130
249,249,0,1,0,12343
250,250,0,0,0,4652
251,251,0,1,0,2782
252,252,0,1,0,9747
253,253,0,0,0,13966
254,254,0,1,0,9087
255,255,0,1,0,2419
256,256,0,1,0,5373
257,257,0,1,0,12709
258,258,0,1,0,12793
259,259,0,0,0,5320
260,260,0,1,0,2469
261,261,0,1,0,9015
262,262,0,0,0,13964
263,263,0,1,0,9826
264,264,0,1,0,2689
265,265,0,1,0,4736
266,266,0,1,0,12226
267,267,0,1,0,13172
268,268,0,1,0,6017
269,269,0,1,0,2298
270,270,0,1,0,8265
271,271,0,1,0,13879
272,272,0,1,0,10537
273,273,0,1,0,3063
274,274,0,0,0,4148
275,275,0,1,0,11695
276,276,0,1,0,13506
277,277,0,1,0,6763
278,278,0,1,0,2148
279,279,0,1,0,7528
280,280,0,1,0,13689
281,281,0,1,0,11189
282,282,0,1,0,3523
283,283,0,1,0,3615
284,284,0,1,0,11091
285,285,0,0,0,13726
286,286,0,1,0,7549
287,287,0,1,0,2146
288,288,0,1,0,6785
289,289,0,1,0,13445
290,290,0,1,0,11795
291,291,0,1,0,4045
292,292,0,1,0,3152
293,293,0,1,0,10445
294,294,0,1,0,13884
295,295,0,1,0,8317
296,296,0,1,0,2228
297,297,0,1,0,6081
298,298,0,1,0,13121
299,299,0,1,0,12330
300,300,0,1,0,4653
301,301,0,1,0,2764
302,302,0,1,0,9745
303,303,0,1,0,13964
304,304,0,1,0,9076
305,305,0,1,0,2402
306,306,0,1,0,5383
307,307,0,1,0,12730
308,308,0,1,0,12781
309,309,0,1,0,5311
310,310,0,1,0,2489
311,311,0,1,0,9021
312,312,0,1,0,13959
313,313,0,1,0,9818
314,314,0,1,0,2679
315,315,0,1,0,4745
316,316,0,1,0,12232
317,317,0,1,0,13182
318,318,0,1,0,6011
319,319,0,1,0,2288
320,320,0,1,0,8285
321,321,0,1,0,13868
322,322,0,1,0,10503
323,323,0,1,0,3039
324,324,0,1,0,4150
325,325,0,1,0,11712
326,326,0,1,0,13492
327,327,0,1,0,6767
328,328,0,1,0,2138
329,329,0,1,0,7543
330,330,0,1,0,13710
331,331,0,1,0,11176
332,332,0,1,0,3519
333,333,0,1,0,3615
334,334,0,1,0,11094
335,335,0,1,0,13732
336,336,0,1,0,7535
337,337,0,1,0,2153
338,338,0,1,0,6800
339,339,0,1,0,13451
340,340,0,1,0,11780
341,341,0,1,0,4030
342,342,0,1,0,3169
343,343,0,1,0,10450
344,344,0,1,0,13883
345,345,0,1,0,8326
346,346,0,1,0,2226
347,347,0,1,0,6096
348,348,0,1,0,13120
349,349,0,1,0,12322
350,350,0,1,0,4627
351,351,0,1,0,2776
352,352,0,1,0,9747
353,353,0,1,0,13982
354,354,0,1,0,9073
355,355,0,1,0,2410
356,356,0,1,0,5376
357,357,0,1,0,12735
358,358,0,1,0,12786
359,359,0,1,0,5306
360,360,0,1,0,2493
361,361,0,1,0,9001
362,362,0,1,0,13960
363,363,0,1,0,9811
364,364,0,1,0,2682
365,365,0,1,0,4747
366,366,0,1,0,12242
367,367,0,1,0,13174
368,368,0,1,0,6009
369,369,0,1,0,2288
370,370,0,1,0,8285
371,371,0,1,0,13878
372,372,0,1,0,10537
373,373,0,1,0,3053
374,374,0,1,0,4160
375,375,0,1,0,11702
376,376,0,1,0,13501
377,377,0,1,0,6760
378,378,0,1,0,2141
379,379,0,1,0,7522
380,380,0,1,0,13709
381,381,0,1,0,11186
382,382,0,1,0,3499
383,383,0,1,0,3625
384,384,0,1,0,11097
385,385,0,1,0,13720
386,386,0,1,0,7535
387,387,0,1,0,2139
388,388,0,1,0,6790
389,389,0,1,0,13435
390,390,0,1,0,11786
391,391,0,1,0,4044
392,392,0,1,0,3160
393,393,0,1,0,10455
394,394,0,1,0,13894
395,395,0,1,0,8311
396,396,0,1,0,2237
397,397,0,1,0,6077
398,398,0,1,0,13119
399,399,0,1,0,12319
400,400,0,1,0,4646
401,401,0,1,0,2774
402,402,0,1,0,9744
403,403,0,1,0,13986
404,404,0,1,0,9076
405,405,0,1,0,2414
406,406,0,1,0,5384
407,407,0,1,0,12737
408,408,0,1,0,12774
409,409,0,1,0,5301
410,410,0,1,0,2496
411,411,0,1,0,9015
412,412,0,1,0,13969
413,413,0,1,0,9828
414,414,0,1,0,2672
415,415,0,1,0,4752
416,416,0,1,0,12253
417,417,0,1,0,13186
418,418,0,1,0,5994
419,419,0,1,0,2280
420,420,0,1,0,8280
421,421,0,1,0,13882
422,422,0,1,0,10512
423,423,0,1,0,3049
424,424,0,1,0,4145
425,425,0,1,0,11692
426,426,0,1,0,13502
427,427,0,1,0,6775
428,428,0,1,0,2147
429,429,0,1,0,7520
430,430,0,1,0,13688
431,431,0,1,0,11172
432,432,0,1,0,3505
433,433,0,1,0,3617
434,434,0,1,0,11091
435,435,0,1,0,13733
436,436,0,1,0,7550
437,437,0,1,0,2149
438,438,0,1,0,6789
439,439,0,1,0,13446
440,440,0,1,0,11797
441,441,0,1,0,4047
442,442,0,1,0,3153
443,443,0,1,0,10447
444,444,0,1,0,13887
445,445,0,1,0,8324
446,446,0,1,0,2231
447,447,0,1,0,6082
448,448,0,1,0,13117
449,449,0,1,0,12319
450,450,0,1,0,4653
451,451,0,1,0,2759
452,452,0,1,0,9730
453,453,0,1,0,13982
454,454,0,1,0,9090
455,455,0,1,0,2417
456,456,0,1,0,5372
457,457,0,1,0,12713
458,458,0,1,0,12783
459,459,0,1,0,5322
460,460,0,1,0,2484
461,461,0,1,0,8998
462,462,0,1,0,13965
463,463,0,1,0,9821
464,464,0,1,0,2686
465,465,0,1,0,4734
466,466,0,1,0,12239
467,467,0,1,0,13198
468,468,0,1,0,6024
469,469,0,1,0,2276
470,470,0,1,0,8265
471,471,0,1,0,13891
472,472,0,1,0,10530
473,473,0,1,0,3059
474,474,0,1,0,4136
475,475,0,1,0,11689
476,476,0,1,0,13492
477,477,0,1,0,6795
478,478,0,1,0,2147
479,479,0,1,0,7499
480,480,0,1,0,13689
481,481,0,1,0,11188
482,482,0,1,0,3516
483,483,0,1,0,3609
484,484,0,1,0,11078
485,485,0,1,0,13733
486,486,0,1,0,7566
487,487,0,1,0,2141
488,488,0,1,0,6769
489,489,0,1,0,13434
490,490,0,1,0,11779
491,491,0,1,0,4046
492,492,0,1,0,3135
493,493,0,1,0,10417
494,494,0,1,0,13880
495,495,0,1,0,8332
496,496,0,1,0,2230
497,497,0,1,0,6068
498,498,0,1,0,13123
499,499,0,1,0,12344
500,500,0,1,0,4673
501,501,0,1,0,2763
502,502,0,1,0,9742
503,503,0,1,0,13957
504,504,0,1,0,9105
505,505,0,1,0,2428
506,506,0,1,0,5362
507,507,0,1,0,12709
508,508,0,1,0,12789
509,509,0,1,0,5330
510,510,0,1,0,2482
511,511,0,1,0,9006
512,512,0,1,0,13959
513,513,0,1,0,9849
514,514,0,1,0,2702
515,515,0,1,0,4729
516,516,0,1,0,12214
517,517,0,1,0,13195
518,518,0,1,0,6047
519,519,0,1,0,2280
520,520,0,1,0,8246
521,521,0,1,0,13868
522,522,0,1,0,10548
523,523,0,1,0,3069
524,524,0,1,0,4121
525,525,0,1,0,11676
526,526,0,1,0,13504
527,527,0,1,0,6807
528,528,0,1,0,2172
529,529,0,1,0,7498
530,530,0,1,0,13700
531,531,0,1,0,11206
532,532,0,1,0,3521
533,533,0,1,0,3588
534,534,0,1,0,11051
535,535,0,1,0,13731
536,536,0,1,0,7585
537,537,0,1,0,2153
538,538,0,1,0,6748
539,539,0,1,0,13412
540,540,0,1,0,11812
541,541,0,1,0,4067
542,542,0,1,0,3133
543,543,0,1,0,10407
544,544,0,1,0,13889
545,545,0,1,0,8366
546,546,0,1,0,2238
547,547,0,1,0,6038
548,548,0,1,0,13085
549,549,0,1,0,12339
550,550,0,1,0,4701
551,551,0,1,0,2757
552,552,0,1,0,9702
553,553,0,1,0,13957
554,554,0,1,0,9135
555,555,0,1,0,2432
556,556,0,1,0,5356
557,557,0,1,0,12683
558,558,0,1,0,12819
559,559,0,1,0,5348
560,560,0,1,0,2476
561,561,0,1,0,8962
562,562,0,1,0,13971
563,563,0,1,0,9870
564,564,0,1,0,2688
565,565,0,1,0,4702
566,566,0,1,0,12192
567,567,0,1,0,13202
568,568,0,1,0,6067
569,569,0,1,0,2267
570,570,0,1,0,8219
571,571,0,1,0,13860
572,572,0,1,0,10591
573,573,0,1,0,3084
574,574,0,1,0,4108
575,575,0,1,0,11658
576,576,0,1,0,13504
577,577,0,1,0,6821
578,578,0,1,0,2158
579,579,0,1,0,7464
580,580,0,1,0,13689
581,581,0,1,0,11238
582,582,0,1,0,3538
583,583,0,1,0,3579
584,584,0,1,0,11039
585,585,0,1,0,13742
586,586,0,1,0,7596
587,587,0,1,0,2146
588,588,0,1,0,6731
589,589,0,1,0,13425
590,590,0,1,0,11840
591,591,0,1,0,4072
592,592,0,1,0,3115
593,593,0,1,0,10376
594,594,0,1,0,13907
595,595,0,1,0,8360
596,596,0,1,0,2244
597,597,0,1,0,6034
598,598,0,1,0,13092
599,599,0,1,0,12358
600,600,0,1,0,4703
601,601,0,1,0,2761
602,602,0,1,0,9685
603,603,0,1,0,13957
604,604,0,1,0,9152
605,605,0,1,0,2434
606,606,0,1,0,5331
607,607,0,1,0,12699
608,608,0,1,0,12812
609,609,0,1,0,5371
610,610,0,1,0,2478
611,611,0,1,0,8941
612,612,0,1,0,13959
613,613,0,1,0,9880
614,614,0,1,0,2720
615,615,0,1,0,4671
616,616,0,1,0,12200
617,617,0,1,0,13223
618,618,0,1,0,6106
619,619,0,1,0,2256
620,620,0,1,0,8205
621,621,0,1,0,13860
622,622,0,1,0,10585
623,623,0,1,0,3103
624,624,0,1,0,4100
625,625,0,1,0,11648
626,626,0,1,0,13519
627,627,0,1,0,6850
628,628,0,1,0,2160
629,629,0,1,0,7463
630,630,0,1,0,13689
631,631,0,1,0,11245
632,632,0,1,0,3544
633,633,0,1,0,3563
634,634,0,1,0,11032
635,635,0,1,0,13751
636,636,0,1,0,7624
637,637,0,1,0,2154
638,638,0,1,0,6699
639,639,0,1,0,13422
640,640,0,1,0,11846
641,641,0,1,0,4085
642,642,0,1,0,3122
643,643,0,1,0,10357
644,644,0,1,0,13895
645,645,0,1,0,8398
646,646,0,1,0,2235
647,647,0,1,0,6001
648,648,0,1,0,13080
649,649,0,1,0,12373
650,650,0,1,0,4728
651,651,0,1,0,2750
652,652,0,1,0,9669
653,653,0,1,0,13952
654,654,0,1,0,9166
655,655,0,1,0,2447
656,656,0,1,0,5308
657,657,0,1,0,12677
658,658,0,1,0,12827
659,659,0,1,0,5384
660,660,0,1,0,2445
661,661,0,1,0,8934
662,662,0,1,0,13954
663,663,0,1,0,9899
664,664,0,1,0,2719
665,665,0,1,0,4654
666,666,0,1,0,12183
667,667,0,1,0,13231
668,668,0,1,0,6114
669,669,0,1,0,2265
670,670,0,1,0,8188
671,671,0,1,0,13862
672,672,0,1,0,10625
673,673,0,1,0,3089
674,674,0,1,0,4085
675,675,0,1,0,11626
676,676,0,1,0,13538
677,677,0,1,0,6872
678,678,0,1,0,2150
679,679,0,1,0,7428
680,680,0,1,0,13686
681,681,0,1,0,11268
682,682,0,1,0,3569
683,683,0,1,0,3556
684,684,0,1,0,11022
685,685,0,1,0,13752
686,686,0,1,0,7630
687,687,0,1,0,2148
688,688,0,1,0,6689
689,689,0,1,0,13407
690,690,0,1,0,11843
691,691,0,1,0,4109
692,692,0,1,0,3094
693,693,0,1,0,10350
694,694,0,1,0,13899
695,695,0,1,0,8428
696,696,0,1,0,2268
697,697,0,1,0,5987
698,698,0,1,0,13078
699,699,0,1,0,12375
700,700,0,1,0,4723
701,701,0,1,0,2730
702,702,0,1,0,9653
703,703,0,1,0,13953
704,704,0,1,0,9182
705,705,0,1,0,2442
706,706,0,1,0,5294
707,707,0,1,0,12639
708,708,0,1,0,12821
709,709,0,1,0,5403
710,710,0,1,0,2462
711,711,0,1,0,8929
712,712,0,1,0,13950
713,713,0,1,0,9917
714,714,0,1,0,2757
715,715,0,1,0,4664
716,716,0,1,0,12155
717,717,0,1,0,13224
718,718,0,1,0,6134
719,719,0,1,0,2245
720,720,0,1,0,8171
721,721,0,1,0,13846
722,722,0,1,0,10622
723,723,0,1,0,3107
724,724,0,1,0,4075
725,725,0,1,0,11618
726,726,0,1,0,13544
727,727,0,1,0,6883
728,728,0,1,0,2147
729,729,0,1,0,7440
730,730,0,1,0,13689
731,731,0,1,0,11273
732,732,0,1,0,3589
733,733,0,1,0,3554
734,734,0,1,0,10990
735,735,0,1,0,13751
736,736,0,1,0,7651
737,737,0,1,0,2158
738,738,0,1,0,6679
739,739,0,1,0,13410
740,740,0,1,0,11869
741,741,0,1,0,4121
742,742,0,1,0,3082
743,743,0,1,0,10297
744,744,0,1,0,13910
745,745,0,1,0,8435
746,746,0,1,0,2265
747,747,0,1,0,5974
748,748,0,1,0,13039
749,749,0,1,0,12381
750,750,0,1,0,4753
751,751,0,1,0,2727
752,752,0,1,0,9634
753,753,0,1,0,13962
754,754,0,1,0,9206
755,755,0,1,0,2461
756,756,0,1,0,5292
757,757,0,1,0,12640
758,758,0,1,0,12850
759,759,0,1,0,5420
760,760,0,1,0,2461
761,761,0,1,0,8892
762,762,0,1,0,13944
763,763,0,1,0,9928
764,764,0,1,0,2753
765,765,0,1,0,4646
766,766,0,1,0,12146
767,767,0,1,0,13248
768,768,0,1,0,6165
769,769,0,1,0,2244
770,770,0,1,0,8144
771,771,0,1,0,13851
772,772,0,1,0,10625
773,773,0,1,0,3120
774,774,0,1,0,4038
775,775,0,1,0,11602
776,776,0,1,0,13552
777,777,0,1,0,6894
778,778,0,1,0,2129
779,779,0,1,0,7418
780,780,0,1,0,13665
781,781,0,1,0,11277
782,782,0,1,0,3601
783,783,0,1,0,3533
784,784,0,1,0,10956
785,785,0,1,0,13765
786,786,0,1,0,7696
787,787,0,1,0,2153
788,788,0,1,0,6643
789,789,0,1,0,13413
790,790,0,1,0,11883
791,791,0,1,0,4141
792,792,0,1,0,3106
793,793,0,1,0,10329
794,794,0,1,0,13901
795,795,0,1,0,8444
796,796,0,1,0,2254
797,797,0,1,0,5945
798,798,0,1,0,13044
799,799,0,1,0,12412
800,800,0,1,0,4757
801,801,0,1,0,2705
802,802,0,1,0,9633
803,803,0,1,0,13963
804,804,0,1,0,9192
805,805,0,1,0,2441
806,806,0,1,0,5277
807,807,0,1,0,12634
808,808,0,1,0,12839
809,809,0,1,0,5442
810,810,0,1,0,2456
811,811,0,1,0,8885
812,812,0,1,0,13955
813,813,0,1,0,9946
814,814,0,1,0,2733
815,815,0,1,0,4626
816,816,0,1,0,12143
817,817,0,1,0,13245
818,818,0,1,0,6152
819,819,0,1,0,2238
820,820,0,1,0,8158
821,821,0,1,0,13853
822,822,0,1,0,10639
823,823,0,1,0,3128
824,824,0,1,0,4054
825,825,0,1,0,11604
826,826,0,1,0,13540
827,827,0,1,0,6904
828,828,0,1,0,2136
829,829,0,1,0,13674
830,830,0,1,0,11302
831,831,0,1,0,3594
832,832,0,1,0,10987
833,833,0,1,0,13755
834,834,0,1,0,7672
835,835,0,1,0,2160
836,836,0,1,0,6650
837,837,0,1,0,11878
838,838,0,1,0,3083
839,839,0,1,0,10320
840,840,0,1,0,8448
841,841,0,1,0,13049
842,842,0,1,0,4768
843,843,0,1,0,9636
844,844,0,1,0,13964
845,845,0,1,0,2444
846,846,0,1,0,5284
847,847,0,1,0,12848
848,848,0,1,0,5434
849,849,0,1,0,2446
850,850,0,1,0,8884
851,851,0,1,0,9954
852,852,0,1,0,2738
853,853,0,1,0,4632
854,854,0,1,0,13243
855,855,0,1,0,6147
856,856,0,1,0,2247
857,857,0,1,0,8154
858,858,0,1,0,10645
859,859,0,1,0,3124
860,860,0,1,0,11587
861,861,0,1,0,13542
862,862,0,1,0,6893
863,863,0,1,0,2151
864,864,0,1,0,7405
865,865,0,1,0,13670
866,866,0,1,0,11297
867,867,0,1,0,3595
868,868,0,1,0,3546
869,869,0,1,0,10998
870,870,0,1,0,13770
871,871,0,1,0,7665
872,872,0,1,0,2176
873,873,0,1,0,6660
874,874,0,1,0,13400
875,875,0,1,0,4142
876,876,0,1,0,3113
877,877,0,1,0,10336
878,878,0,1,0,13905
879,879,0,1,0,8426
880,880,0,1,0,2257
881,881,0,1,0,5977
882,882,0,1,0,13056
883,883,0,1,0,12391
884,884,0,1,0,4765
885,885,0,1,0,2713
886,886,0,1,0,9630
887,887,0,1,0,13970
888,888,0,1,0,9183
889,889,0,1,0,2445
890,890,0,1,0,5274
891,891,0,1,0,12648
892,892,0,1,0,12853
893,893,0,1,0,5419
894,894,0,1,0,2454
895,895,0,1,0,8892
896,896,0,1,0,13961
897,897,0,1,0,9942
898,898,0,1,0,2746
899,899,0,1,0,4638
900,900,0,1,0,12153
901,901,0,1,0,13235
902,902,0,1,0,6143
903,903,0,1,0,2252
904,904,0,1,0,8165
905,905,0,1,0,13838
906,906,0,1,0,10632
907,907,0,1,0,3118
908,908,0,1,0,4054
909,909,0,1,0,11597
910,910,0,1,0,13538
911,911,0,1,0,6895
912,912,0,1,0,2139
913,913,0,1,0,7409
914,914,0,1,0,13671
915,915,0,1,0,11267
916,916,0,1,0,3598
917,917,0,1,0,3548
918,918,0,1,0,10988
919,919,0,1,0,13752
920,920,0,1,0,7662
921,921,0,1,0,6681
922,922,0,1,0,13400
923,923,0,1,0,4140
924,924,0,1,0,10332
925,925,0,1,0,8441
926,926,0,1,0,2256
927,927,0,1,0,5964
928,928,0,1,0,13066
929,929,0,1,0,12402
930,930,0,1,0,2729
931,931,0,1,0,9634
932,932,0,1,0,13962
933,933,0,1,0,2444
934,934,0,1,0,5290
935,935,0,1,0,12650
936,936,0,1,0,12854
937,937,0,1,0,5412
938,938,0,1,0,8888
939,939,0,1,0,13952
940,940,0,1,0,2739
941,941,0,1,0,4648
942,942,0,1,0,13242
943,943,0,1,0,2248
944,944,0,1,0,8148
945,945,0,1,0,10632
946,946,0,1,0,3120
947,947,0,1,0,11602
948,948,0,1,0,6900
949,949,0,1,0,7410
950,950,0,1,0,11299
951,951,0,1,0,3596
952,952,0,1,0,10998
953,953,0,1,0,7670
954,954,0,1,0,2146
955,955,0,1,0,13408
956,956,0,1,0,4131
957,957,0,1,0,3097
958,958,0,1,0,10324
959,959,0,1,0,8443
960,960,0,1,0,2251
961,961,0,1,0,5953
962,962,0,1,0,13073
963,963,0,1,0,12404
964,964,0,1,0,4752
965,965,0,1,0,9637
966,966,0,1,0,13970
967,967,0,1,0,9208
968,968,0,1,0,5275
969,969,0,1,0,12651
970,970,0,1,0,12848
971,971,0,1,0,2446
972,972,0,1,0,13954
973,973,0,1,0,2741
974,974,0,1,0,4654
975,975,0,1,0,12166
976,976,0,1,0,13229
977,977,0,1,0,6136
978,978,0,1,0,8156
979,979,0,1,0,13846
980,980,0,1,0,3119
981,981,0,1,0,4066
982,982,0,1,0,11596
983,983,0,1,0,13538
984,984,0,1,0,2156
985,985,0,1,0,13663
986,986,0,1,0,11274
987,987,0,1,0,3530
988,988,0,1,0,13748
989,989,0,1,0,2145
990,990,0,1,0,6659
991,991,0,1,0,13410
992,992,0,1,0,11866
993,993,0,1,0,4140
994,994,0,1,0,3096
995,995,0,1,0,13902
996,996,0,1,0,2260
997,997,0,1,0,13071
998,998,0,1,0,12396
999,999,0,1,0,2716
1000,1000,0,1,0,13962
1001,1001,0,1,0,2448
1002,1002,0,1,0,12660
1003,1003,0,1,0,5409
1004,1004,0,1,0,2463
1005,1005,0,1,0,8893
1006,1006,0,1,0,13962
1007,1007,0,1,0,2734
1008,1008,0,1,0,12163
1009,1009,0,1,0,13228
1010,1010,0,1,0,2246
1011,1011,0,1,0,13841
1012,1012,0,1,0,10615
1013,1013,0,1,0,3119
1014,1014,0,1,0,4074
1015,1015,0,1,0,11616
1016,1016,0,1,0,13534
1017,1017,0,1,0,2150
1018,1018,0,1,0,13646
1019,1019,0,1,0,3590
1020,1020,0,1,0,11003
1021,1021,0,1,0,13750
1022,1022,0,1,0,7670
1023,1023,0,1,0,6686
1024,1024,0,1,0,11862
1025,1025,0,1,0,4134
1026,1026,0,1,0,10331
