Sample in Buffer,Sample in Window,TRIGGER,block_design_i/system_ila_1/inst/probe0_1,block_design_i/system_ila_1/inst/probe1_1,block_design_i/system_ila_1/inst/probe2_1[13:0]
Radix - UNSIGNED,UNSIGNED,UNSIGNED,HEX,HEX,UNSIGNED
0,0,0,0,0,5911
1,1,0,1,0,4887
2,2,0,0,0,15222
3,3,0,1,0,15222
4,4,0,0,0,15347
5,5,0,1,0,13299
6,6,0,0,0,6083
7,7,0,1,0,6083
8,8,0,0,0,9508
9,9,0,1,0,9508
10,10,0,0,0,5903
11,11,0,1,0,4879
12,12,0,0,0,15226
13,13,0,1,0,15226
14,14,0,0,0,15379
15,15,0,1,0,13331
16,16,0,0,0,6071
17,17,0,1,0,6071
18,18,0,0,0,9475
19,19,0,1,0,9475
20,20,0,0,0,5916
21,21,0,1,0,4892
22,22,0,0,0,15232
23,23,0,1,0,15232
24,24,0,0,0,15379
25,25,0,1,0,13331
26,26,0,0,0,6098
27,27,0,1,0,6098
28,28,0,0,0,9540
29,29,0,1,0,9540
30,30,0,0,0,5944
31,31,0,1,0,4920
32,32,0,0,0,15224
33,33,0,1,0,15224
34,34,0,0,0,15379
35,35,0,1,0,13331
36,36,0,0,0,6076
37,37,0,1,0,6076
38,38,0,0,0,9527
39,39,0,1,0,9527
40,40,0,0,0,5897
41,41,0,1,0,4873
42,42,0,0,0,15220
43,43,0,1,0,15220
44,44,0,0,0,15348
45,45,0,1,0,13300
46,46,0,0,0,6081
47,47,0,1,0,6081
48,48,0,0,0,9527
49,49,0,1,0,9527
50,50,0,0,0,5916
51,51,0,1,0,4892
52,52,0,0,0,15222
53,53,0,1,0,15222
54,54,0,0,0,15353
55,55,0,1,0,13305
56,56,0,0,0,6115
57,57,0,1,0,6115
58,58,0,0,0,9546
59,59,0,1,0,9546
60,60,0,0,0,5899
61,61,0,1,0,4875
62,62,0,0,0,15244
63,63,0,1,0,15244
64,64,0,0,0,15358
65,65,0,1,0,13310
66,66,0,0,0,6067
67,67,0,1,0,6067
68,68,0,0,0,9526
69,69,0,1,0,9526
70,70,0,0,0,5896
71,71,0,1,0,4872
72,72,0,0,0,15197
73,73,0,1,0,15197
74,74,0,0,0,15375
75,75,0,1,0,13327
76,76,0,0,0,6096
77,77,0,1,0,6096
78,78,0,0,0,9506
79,79,0,1,0,9506
80,80,0,0,0,5896
81,81,0,1,0,4872
82,82,0,0,0,15255
83,83,0,1,0,15255
84,84,0,0,0,15376
85,85,0,1,0,13328
86,86,0,0,0,6062
87,87,0,1,0,6062
88,88,0,0,0,9509
89,89,0,1,0,9509
90,90,0,0,0,5878
91,91,0,1,0,4854
92,92,0,0,0,15220
93,93,0,1,0,15220
94,94,0,0,0,15371
95,95,0,1,0,13323
96,96,0,0,0,6064
97,97,0,1,0,6064
98,98,0,0,0,9512
99,99,0,1,0,9512
100,100,0,0,0,5902
101,101,0,1,0,4878
102,102,0,0,0,15224
103,103,0,1,0,15224
104,104,0,0,0,15402
105,105,0,1,0,13354
106,106,0,0,0,6087
107,107,0,1,0,6087
108,108,0,0,0,9550
109,109,0,1,0,9550
110,110,0,0,0,5936
111,111,0,1,0,4912
112,112,0,0,0,15257
113,113,0,1,0,15257
114,114,0,0,0,15382
115,115,0,1,0,13334
116,116,0,0,0,6067
117,117,0,1,0,6067
118,118,0,0,0,9534
119,119,0,1,0,9534
120,120,0,0,0,5926
121,121,0,1,0,4902
122,122,0,0,0,15269
123,123,0,1,0,15269
124,124,0,0,0,15363
125,125,0,1,0,13315
126,126,0,0,0,6097
127,127,0,1,0,6097
128,128,0,0,0,9546
129,129,0,1,0,9546
130,130,0,0,0,5913
131,131,0,1,0,4889
132,132,0,0,0,15237
133,133,0,1,0,15237
134,134,0,0,0,15432
135,135,0,1,0,13384
136,136,0,0,0,6111
137,137,0,1,0,6111
138,138,0,0,0,9523
139,139,0,1,0,9523
140,140,0,0,0,5921
141,141,0,1,0,4897
142,142,0,0,0,15210
143,143,0,1,0,15210
144,144,0,0,0,15368
145,145,0,1,0,13320
146,146,0,0,0,6067
147,147,0,1,0,6067
148,148,0,0,0,9534
149,149,0,1,0,9534
150,150,0,0,0,5917
151,151,0,1,0,4893
152,152,0,0,0,15255
153,153,0,1,0,15255
154,154,0,0,0,15378
155,155,0,1,0,13330
156,156,0,0,0,6069
157,157,0,1,0,6069
158,158,0,0,0,9540
159,159,0,1,0,9540
160,160,0,0,0,5899
161,161,0,1,0,4875
162,162,0,0,0,15226
163,163,0,1,0,15226
164,164,0,0,0,15383
165,165,0,1,0,13335
166,166,0,0,0,6067
167,167,0,1,0,6067
168,168,0,0,0,9508
169,169,0,1,0,9508
170,170,0,0,0,5900
171,171,0,1,0,4876
172,172,0,0,0,15238
173,173,0,1,0,15238
174,174,0,0,0,15412
175,175,0,1,0,13364
176,176,0,0,0,6097
177,177,0,1,0,6097
178,178,0,0,0,9522
179,179,0,1,0,9522
180,180,0,0,0,5920
181,181,0,1,0,4896
182,182,0,0,0,15237
183,183,0,1,0,15237
184,184,0,0,0,15361
185,185,0,1,0,13313
186,186,0,0,0,6092
187,187,0,1,0,6092
188,188,0,0,0,9501
189,189,0,1,0,9501
190,190,0,0,0,5894
191,191,0,1,0,4870
192,192,0,0,0,15215
193,193,0,1,0,15215
194,194,0,0,0,15362
195,195,0,1,0,13314
196,196,0,0,0,6082
197,197,0,1,0,6082
198,198,0,0,0,9525
199,199,0,1,0,9525
200,200,0,0,0,5879
201,201,0,1,0,4855
202,202,0,0,0,15232
203,203,0,1,0,15232
204,204,0,0,0,15374
205,205,0,1,0,13326
206,206,0,0,0,6095
207,207,0,1,0,6095
208,208,0,0,0,9535
209,209,0,1,0,9535
210,210,0,0,0,5891
211,211,0,1,0,4867
212,212,0,0,0,15203
213,213,0,1,0,15203
214,214,0,0,0,15371
215,215,0,1,0,13323
216,216,0,0,0,6104
217,217,0,1,0,6104
218,218,0,0,0,9501
219,219,0,1,0,9501
220,220,0,0,0,5930
221,221,0,1,0,4906
222,222,0,0,0,15220
223,223,0,1,0,15220
224,224,0,0,0,15381
225,225,0,1,0,13333
226,226,0,0,0,6083
227,227,0,1,0,6083
228,228,0,0,0,9518
229,229,0,1,0,9518
230,230,0,0,0,5909
231,231,0,1,0,4885
232,232,0,0,0,15202
233,233,0,1,0,15202
234,234,0,0,0,15368
235,235,0,1,0,13320
236,236,0,0,0,6065
237,237,0,1,0,6065
238,238,0,0,0,9538
239,239,0,1,0,9538
240,240,0,0,0,5909
241,241,0,1,0,4885
242,242,0,0,0,15201
243,243,0,1,0,15201
244,244,0,0,0,15361
245,245,0,1,0,13313
246,246,0,0,0,6074
247,247,0,1,0,6074
248,248,0,0,0,9526
249,249,0,1,0,9526
250,250,0,0,0,5912
251,251,0,1,0,4888
252,252,0,0,0,15235
253,253,0,1,0,15235
254,254,0,0,0,15383
255,255,0,1,0,13335
256,256,0,0,0,6075
257,257,0,1,0,6075
258,258,0,0,0,9562
259,259,0,1,0,9562
260,260,0,0,0,5928
261,261,0,1,0,4904
262,262,0,0,0,15249
263,263,0,1,0,15249
264,264,0,0,0,15383
265,265,0,1,0,13335
266,266,0,0,0,6113
267,267,0,1,0,6113
268,268,0,0,0,9491
269,269,0,1,0,9491
270,270,0,0,0,5922
271,271,0,1,0,4898
272,272,0,0,0,15221
273,273,0,1,0,15221
274,274,0,0,0,15390
275,275,0,1,0,13342
276,276,0,0,0,6057
277,277,0,1,0,6057
278,278,0,0,0,9514
279,279,0,1,0,9514
280,280,0,0,0,5914
281,281,0,1,0,4890
282,282,0,0,0,15212
283,283,0,1,0,15212
284,284,0,0,0,15354
285,285,0,1,0,13306
286,286,0,0,0,6093
287,287,0,1,0,6093
288,288,0,0,0,9538
289,289,0,1,0,9538
290,290,0,0,0,5902
291,291,0,1,0,4878
292,292,0,0,0,15223
293,293,0,1,0,15223
294,294,0,0,0,15384
295,295,0,1,0,13336
296,296,0,0,0,6078
297,297,0,1,0,6078
298,298,0,0,0,9534
299,299,0,1,0,9534
300,300,0,0,0,5907
301,301,0,1,0,4883
302,302,0,0,0,15216
303,303,0,1,0,15216
304,304,0,0,0,15375
305,305,0,1,0,13327
306,306,0,0,0,6113
307,307,0,1,0,6113
308,308,0,0,0,9523
309,309,0,1,0,9523
310,310,0,0,0,5950
311,311,0,1,0,4926
312,312,0,0,0,15221
313,313,0,1,0,15221
314,314,0,0,0,15382
315,315,0,1,0,13334
316,316,0,0,0,6084
317,317,0,1,0,6084
318,318,0,0,0,9535
319,319,0,1,0,9535
320,320,0,0,0,5925
321,321,0,1,0,4901
322,322,0,0,0,15237
323,323,0,1,0,15237
324,324,0,0,0,15378
325,325,0,1,0,13330
326,326,0,0,0,6054
327,327,0,1,0,6054
328,328,0,0,0,9531
329,329,0,1,0,9531
330,330,0,0,0,5915
331,331,0,1,0,4891
332,332,0,0,0,15257
333,333,0,1,0,15257
334,334,0,0,0,15369
335,335,0,1,0,13321
336,336,0,0,0,6092
337,337,0,1,0,6092
338,338,0,0,0,9548
339,339,0,1,0,9548
340,340,0,0,0,5949
341,341,0,1,0,4925
342,342,0,0,0,15240
343,343,0,1,0,15240
344,344,0,0,0,15394
345,345,0,1,0,13346
346,346,0,0,0,6105
347,347,0,1,0,6105
348,348,0,0,0,9522
349,349,0,1,0,9522
350,350,0,0,0,5926
351,351,0,1,0,4902
352,352,0,0,0,15244
353,353,0,1,0,15244
354,354,0,0,0,15395
355,355,0,1,0,13347
356,356,0,0,0,6102
357,357,0,1,0,6102
358,358,0,0,0,9517
359,359,0,1,0,9517
360,360,0,0,0,5905
361,361,0,1,0,4881
362,362,0,0,0,15229
363,363,0,1,0,15229
364,364,0,0,0,15346
365,365,0,1,0,13298
366,366,0,0,0,6065
367,367,0,1,0,6065
368,368,0,0,0,9524
369,369,0,1,0,9524
370,370,0,0,0,5887
371,371,0,1,0,4863
372,372,0,0,0,15221
373,373,0,1,0,15221
374,374,0,0,0,15385
375,375,0,1,0,13337
376,376,0,0,0,6073
377,377,0,1,0,6073
378,378,0,0,0,9531
379,379,0,1,0,9531
380,380,0,0,0,5897
381,381,0,1,0,4873
382,382,0,0,0,15231
383,383,0,1,0,15231
384,384,0,0,0,15381
385,385,0,1,0,13333
386,386,0,0,0,6114
387,387,0,1,0,6114
388,388,0,0,0,9521
389,389,0,1,0,9521
390,390,0,0,0,5942
391,391,0,1,0,4918
392,392,0,0,0,15207
393,393,0,1,0,15207
394,394,0,0,0,15404
395,395,0,1,0,13356
396,396,0,0,0,6081
397,397,0,1,0,6081
398,398,0,0,0,9540
399,399,0,1,0,9540
400,400,0,0,0,5912
401,401,0,1,0,4888
402,402,0,0,0,15195
403,403,0,1,0,15195
404,404,0,0,0,15370
405,405,0,1,0,13322
406,406,0,0,0,6068
407,407,0,1,0,6068
408,408,0,0,0,9540
409,409,0,1,0,9540
410,410,0,0,0,5911
411,411,0,1,0,4887
412,412,0,0,0,15209
413,413,0,1,0,15209
414,414,0,0,0,15392
415,415,0,1,0,13344
416,416,0,0,0,6084
417,417,0,1,0,6084
418,418,0,0,0,9521
419,419,0,1,0,9521
420,420,0,0,0,5930
421,421,0,1,0,4906
422,422,0,0,0,15211
423,423,0,1,0,15211
424,424,0,0,0,15386
425,425,0,1,0,13338
426,426,0,0,0,6048
427,427,0,1,0,6048
428,428,0,0,0,9533
429,429,0,1,0,9533
430,430,0,0,0,5912
431,431,0,1,0,4888
432,432,0,0,0,15228
433,433,0,1,0,15228
434,434,0,0,0,15363
435,435,0,1,0,13315
436,436,0,0,0,6098
437,437,0,1,0,6098
438,438,0,0,0,9514
439,439,0,1,0,9514
440,440,0,0,0,5951
441,441,0,1,0,4927
442,442,0,0,0,15221
443,443,0,1,0,15221
444,444,0,0,0,15375
445,445,0,1,0,13327
446,446,0,0,0,6064
447,447,0,1,0,6064
448,448,0,0,0,9509
449,449,0,1,0,9509
450,450,0,0,0,5917
451,451,0,1,0,4893
452,452,0,0,0,15225
453,453,0,1,0,15225
454,454,0,0,0,15379
455,455,0,1,0,13331
456,456,0,0,0,6065
457,457,0,1,0,6065
458,458,0,0,0,9540
459,459,0,1,0,9540
460,460,0,0,0,5910
461,461,0,1,0,4886
462,462,0,0,0,15217
463,463,0,1,0,15217
464,464,0,0,0,15412
465,465,0,1,0,13364
466,466,0,0,0,6074
467,467,0,1,0,6074
468,468,0,0,0,9534
469,469,0,1,0,9534
470,470,0,0,0,5915
471,471,0,1,0,4891
472,472,0,0,0,15197
473,473,0,1,0,15197
474,474,0,0,0,15368
475,475,0,1,0,13320
476,476,0,0,0,6056
477,477,0,1,0,6056
478,478,0,0,0,9537
479,479,0,1,0,9537
480,480,0,0,0,5893
481,481,0,1,0,4869
482,482,0,0,0,15193
483,483,0,1,0,15193
484,484,0,0,0,15386
485,485,0,1,0,13338
486,486,0,0,0,6066
487,487,0,1,0,6066
488,488,0,0,0,9543
489,489,0,1,0,9543
490,490,0,0,0,5943
491,491,0,1,0,4919
492,492,0,0,0,15221
493,493,0,1,0,15221
494,494,0,0,0,15379
495,495,0,1,0,13331
496,496,0,0,0,6080
497,497,0,1,0,6080
498,498,0,0,0,9522
499,499,0,1,0,9522
500,500,0,0,0,5923
501,501,0,1,0,4899
502,502,0,0,0,15208
503,503,0,1,0,15208
504,504,0,0,0,15367
505,505,0,1,0,13319
506,506,0,0,0,6050
507,507,0,1,0,6050
508,508,0,0,0,9523
509,509,0,1,0,9523
510,510,0,0,0,5919
511,511,0,1,0,4895
512,512,0,0,0,15223
513,513,0,1,0,15223
514,514,0,0,0,15390
515,515,0,1,0,13342
516,516,0,0,0,6073
517,517,0,1,0,6073
518,518,0,0,0,9515
519,519,0,1,0,9515
520,520,0,0,0,5902
521,521,0,1,0,4878
522,522,0,0,0,15194
523,523,0,1,0,15194
524,524,0,0,0,15406
525,525,0,1,0,13358
526,526,0,0,0,6076
527,527,0,1,0,6076
528,528,0,0,0,9527
529,529,0,1,0,9527
530,530,0,0,0,5930
531,531,0,1,0,4906
532,532,0,0,0,15228
533,533,0,1,0,15228
534,534,0,0,0,15408
535,535,0,1,0,13360
536,536,0,0,0,6030
537,537,0,1,0,6030
538,538,0,0,0,9556
539,539,0,1,0,9556
540,540,0,0,0,5924
541,541,0,1,0,4900
542,542,0,0,0,15197
543,543,0,1,0,15197
544,544,0,0,0,15386
545,545,0,1,0,13338
546,546,0,0,0,6120
547,547,0,1,0,6120
548,548,0,0,0,9517
549,549,0,1,0,9517
550,550,0,0,0,5932
551,551,0,1,0,4908
552,552,0,0,0,15212
553,553,0,1,0,15212
554,554,0,0,0,15387
555,555,0,1,0,13339
556,556,0,0,0,6047
557,557,0,1,0,6047
558,558,0,0,0,9519
559,559,0,1,0,9519
560,560,0,0,0,5911
561,561,0,1,0,4887
562,562,0,0,0,15215
563,563,0,1,0,15215
564,564,0,0,0,15399
565,565,0,1,0,13351
566,566,0,0,0,6077
567,567,0,1,0,6077
568,568,0,0,0,9534
569,569,0,1,0,9534
570,570,0,0,0,5886
571,571,0,1,0,4862
572,572,0,0,0,15182
573,573,0,1,0,15182
574,574,0,0,0,15396
575,575,0,1,0,13348
576,576,0,0,0,6072
577,577,0,1,0,6072
578,578,0,0,0,9518
579,579,0,1,0,9518
580,580,0,0,0,5926
581,581,0,1,0,4902
582,582,0,0,0,15192
583,583,0,1,0,15192
584,584,0,0,0,15406
585,585,0,1,0,13358
586,586,0,0,0,6075
587,587,0,1,0,6075
588,588,0,0,0,9538
589,589,0,1,0,9538
590,590,0,0,0,5918
591,591,0,1,0,4894
592,592,0,0,0,15177
593,593,0,1,0,15177
594,594,0,0,0,15407
595,595,0,1,0,13359
596,596,0,0,0,6075
597,597,0,1,0,6075
598,598,0,0,0,9519
599,599,0,1,0,9519
600,600,0,0,0,5913
601,601,0,1,0,4889
602,602,0,0,0,15223
603,603,0,1,0,15223
604,604,0,0,0,15390
605,605,0,1,0,13342
606,606,0,0,0,6079
607,607,0,1,0,6079
608,608,0,0,0,9497
609,609,0,1,0,9497
610,610,0,0,0,5945
611,611,0,1,0,4921
612,612,0,0,0,15202
613,613,0,1,0,15202
614,614,0,0,0,15411
615,615,0,1,0,13363
616,616,0,0,0,6060
617,617,0,1,0,6060
618,618,0,0,0,9511
619,619,0,1,0,9511
620,620,0,0,0,5905
621,621,0,1,0,4881
622,622,0,0,0,15201
623,623,0,1,0,15201
624,624,0,0,0,15375
625,625,0,1,0,13327
626,626,0,0,0,6080
627,627,0,1,0,6080
628,628,0,0,0,9545
629,629,0,1,0,9545
630,630,0,0,0,5911
631,631,0,1,0,4887
632,632,0,0,0,15224
633,633,0,1,0,15224
634,634,0,0,0,15382
635,635,0,1,0,13334
636,636,0,0,0,6073
637,637,0,1,0,6073
638,638,0,0,0,9564
639,639,0,1,0,9564
640,640,0,0,0,5957
641,641,0,1,0,4933
642,642,0,0,0,15196
643,643,0,1,0,15196
644,644,0,0,0,15391
645,645,0,1,0,13343
646,646,0,0,0,6083
647,647,0,1,0,6083
648,648,0,0,0,9520
649,649,0,1,0,9520
650,650,0,0,0,5925
651,651,0,1,0,4901
652,652,0,0,0,15210
653,653,0,1,0,15210
654,654,0,0,0,15402
655,655,0,1,0,13354
656,656,0,0,0,6091
657,657,0,1,0,6091
658,658,0,0,0,9533
659,659,0,1,0,9533
660,660,0,0,0,5923
661,661,0,1,0,4899
662,662,0,0,0,15195
663,663,0,1,0,15195
664,664,0,0,0,15379
665,665,0,1,0,13331
666,666,0,0,0,6051
667,667,0,1,0,6051
668,668,0,0,0,9520
669,669,0,1,0,9520
670,670,0,0,0,5927
671,671,0,1,0,4903
672,672,0,0,0,15214
673,673,0,1,0,15214
674,674,0,0,0,15408
675,675,0,1,0,13360
676,676,0,0,0,6065
677,677,0,1,0,6065
678,678,0,0,0,9545
679,679,0,1,0,9545
680,680,0,0,0,5931
681,681,0,1,0,4907
682,682,0,0,0,15211
683,683,0,1,0,15211
684,684,0,0,0,15398
685,685,0,1,0,13350
686,686,0,0,0,6072
687,687,0,1,0,6072
688,688,0,0,0,9509
689,689,0,1,0,9509
690,690,0,0,0,5914
691,691,0,1,0,4890
692,692,0,0,0,15193
693,693,0,1,0,15193
694,694,0,0,0,15383
695,695,0,1,0,13335
696,696,0,0,0,6060
697,697,0,1,0,6060
698,698,0,0,0,9508
699,699,0,1,0,9508
700,700,0,0,0,5948
701,701,0,1,0,4924
702,702,0,0,0,15199
703,703,0,1,0,15199
704,704,0,0,0,15384
705,705,0,1,0,13336
706,706,0,0,0,6067
707,707,0,1,0,6067
708,708,0,0,0,9522
709,709,0,1,0,9522
710,710,0,0,0,5956
711,711,0,1,0,4932
712,712,0,0,0,15216
713,713,0,1,0,15216
714,714,0,0,0,15407
715,715,0,1,0,13359
716,716,0,0,0,6082
717,717,0,1,0,6082
718,718,0,0,0,9518
719,719,0,1,0,9518
720,720,0,0,0,5919
721,721,0,1,0,4895
722,722,0,0,0,15195
723,723,0,1,0,15195
724,724,0,0,0,15403
725,725,0,1,0,13355
726,726,0,0,0,6074
727,727,0,1,0,6074
728,728,0,0,0,9527
729,729,0,1,0,9527
730,730,0,0,0,5903
731,731,0,1,0,4879
732,732,0,0,0,15209
733,733,0,1,0,15209
734,734,0,0,0,15373
735,735,0,1,0,13325
736,736,0,0,0,6086
737,737,0,1,0,6086
738,738,0,0,0,9544
739,739,0,1,0,9544
740,740,0,0,0,5944
741,741,0,1,0,4920
742,742,0,0,0,15215
743,743,0,1,0,15215
744,744,0,0,0,15416
745,745,0,1,0,13368
746,746,0,0,0,6072
747,747,0,1,0,6072
748,748,0,0,0,9500
749,749,0,1,0,9500
750,750,0,0,0,5925
751,751,0,1,0,4901
752,752,0,0,0,15223
753,753,0,1,0,15223
754,754,0,0,0,15403
755,755,0,1,0,13355
756,756,0,0,0,6057
757,757,0,1,0,6057
758,758,0,0,0,9518
759,759,0,1,0,9518
760,760,0,0,0,5956
761,761,0,1,0,4932
762,762,0,0,0,15190
763,763,0,1,0,15190
764,764,0,0,0,15388
765,765,0,1,0,13340
766,766,0,0,0,6053
767,767,0,1,0,6053
768,768,0,0,0,9542
769,769,0,1,0,9542
770,770,0,0,0,5916
771,771,0,1,0,4892
772,772,0,0,0,15231
773,773,0,1,0,15231
774,774,0,0,0,15411
775,775,0,1,0,13363
776,776,0,0,0,6079
777,777,0,1,0,6079
778,778,0,0,0,9526
779,779,0,1,0,9526
780,780,0,0,0,5896
781,781,0,1,0,4872
782,782,0,0,0,15189
783,783,0,1,0,15189
784,784,0,0,0,15388
785,785,0,1,0,13340
786,786,0,0,0,6085
787,787,0,1,0,6085
788,788,0,0,0,9532
789,789,0,1,0,9532
790,790,0,0,0,5951
791,791,0,1,0,4927
792,792,0,0,0,15215
793,793,0,1,0,15215
794,794,0,0,0,15417
795,795,0,1,0,13369
796,796,0,0,0,6071
797,797,0,1,0,6071
798,798,0,0,0,9542
799,799,0,1,0,9542
800,800,0,0,0,5922
801,801,0,1,0,4898
802,802,0,0,0,15205
803,803,0,1,0,15205
804,804,0,0,0,15390
805,805,0,1,0,13342
806,806,0,0,0,6079
807,807,0,1,0,6079
808,808,0,0,0,9511
809,809,0,1,0,9511
810,810,0,0,0,5941
811,811,0,1,0,4917
812,812,0,0,0,15193
813,813,0,1,0,15193
814,814,0,0,0,15402
815,815,0,1,0,13354
816,816,0,0,0,6036
817,817,0,1,0,6036
818,818,0,0,0,9544
819,819,0,1,0,9544
820,820,0,0,0,5940
821,821,0,1,0,4916
822,822,0,0,0,15203
823,823,0,1,0,15203
824,824,0,0,0,15419
825,825,0,1,0,13371
826,826,0,0,0,6091
827,827,0,1,0,6091
828,828,0,0,0,9522
829,829,0,1,0,9522
830,830,0,0,0,5942
831,831,0,1,0,4918
832,832,0,0,0,15225
833,833,0,1,0,15225
834,834,0,0,0,15401
835,835,0,1,0,13353
836,836,0,0,0,6063
837,837,0,1,0,6063
838,838,0,0,0,9553
839,839,0,1,0,9553
840,840,0,0,0,5931
841,841,0,1,0,4907
842,842,0,0,0,15206
843,843,0,1,0,15206
844,844,0,0,0,15400
845,845,0,1,0,13352
846,846,0,0,0,6071
847,847,0,1,0,6071
848,848,0,0,0,9558
849,849,0,1,0,9558
850,850,0,0,0,5956
851,851,0,1,0,4932
852,852,0,0,0,15224
853,853,0,1,0,15224
854,854,0,0,0,15381
855,855,0,1,0,13333
856,856,0,0,0,6070
857,857,0,1,0,6070
858,858,0,0,0,9521
859,859,0,1,0,9521
860,860,0,0,0,5915
861,861,0,1,0,4891
862,862,0,0,0,15197
863,863,0,1,0,15197
864,864,0,0,0,15395
865,865,0,1,0,13347
866,866,0,0,0,6052
867,867,0,1,0,6052
868,868,0,0,0,9553
869,869,0,1,0,9553
870,870,0,0,0,5911
871,871,0,1,0,4887
872,872,0,0,0,15210
873,873,0,1,0,15210
874,874,0,0,0,15419
875,875,0,1,0,13371
876,876,0,0,0,6083
877,877,0,1,0,6083
878,878,0,0,0,9526
879,879,0,1,0,9526
880,880,0,0,0,5897
881,881,0,1,0,4873
882,882,0,0,0,15238
883,883,0,1,0,15238
884,884,0,0,0,15358
885,885,0,1,0,13310
886,886,0,0,0,6065
887,887,0,1,0,6065
888,888,0,0,0,9528
889,889,0,1,0,9528
890,890,0,0,0,5929
891,891,0,1,0,4905
892,892,0,0,0,15233
893,893,0,1,0,15233
894,894,0,0,0,15370
895,895,0,1,0,13322
896,896,0,0,0,6075
897,897,0,1,0,6075
898,898,0,0,0,9522
899,899,0,1,0,9522
900,900,0,0,0,5899
901,901,0,1,0,4875
902,902,0,0,0,15212
903,903,0,1,0,15212
904,904,0,0,0,15390
905,905,0,1,0,13342
906,906,0,0,0,6077
907,907,0,1,0,6077
908,908,0,0,0,9549
909,909,0,1,0,9549
910,910,0,0,0,5925
911,911,0,1,0,4901
912,912,0,0,0,15199
913,913,0,1,0,15199
914,914,0,0,0,15357
915,915,0,1,0,13309
916,916,0,0,0,6079
917,917,0,1,0,6079
918,918,0,0,0,9530
919,919,0,1,0,9530
920,920,0,0,0,5907
921,921,0,1,0,4883
922,922,0,0,0,15205
923,923,0,1,0,15205
924,924,0,0,0,15373
925,925,0,1,0,13325
926,926,0,0,0,6049
927,927,0,1,0,6049
928,928,0,0,0,9513
929,929,0,1,0,9513
930,930,0,0,0,5940
931,931,0,1,0,4916
932,932,0,0,0,15230
933,933,0,1,0,15230
934,934,0,0,0,15393
935,935,0,1,0,13345
936,936,0,0,0,6069
937,937,0,1,0,6069
938,938,0,0,0,9528
939,939,0,1,0,9528
940,940,0,0,0,5902
941,941,0,1,0,4878
942,942,0,0,0,15199
943,943,0,1,0,15199
944,944,0,0,0,15371
945,945,0,1,0,13323
946,946,0,0,0,6075
947,947,0,1,0,6075
948,948,0,0,0,9521
949,949,0,1,0,9521
950,950,0,0,0,5934
951,951,0,1,0,4910
952,952,0,0,0,15209
953,953,0,1,0,15209
954,954,0,0,0,15398
955,955,0,1,0,13350
956,956,0,0,0,6093
957,957,0,1,0,6093
958,958,0,0,0,9522
959,959,0,1,0,9522
960,960,0,0,0,5923
961,961,0,1,0,4899
962,962,0,0,0,15220
963,963,0,1,0,15220
964,964,0,0,0,15377
965,965,0,1,0,13329
966,966,0,0,0,6049
967,967,0,1,0,6049
968,968,0,0,0,9525
969,969,0,1,0,9525
970,970,0,0,0,5950
971,971,0,1,0,4926
972,972,0,0,0,15240
973,973,0,1,0,15240
974,974,0,0,0,15402
975,975,0,1,0,13354
976,976,0,0,0,6075
977,977,0,1,0,6075
978,978,0,0,0,9534
979,979,0,1,0,9534
